[2024-Mar-15 10:06:27] [debug] --------------------------------------------------------------------------------
[2024-Mar-15 10:06:27] [debug] nrfjprog -f NRF52 --recover --log 
[2024-Mar-15 10:06:27] [debug] nrfjprog version 10.24.0 external
[2024-Mar-15 10:06:27] [debug] --------------------------------------------------------------------------------
[2024-Mar-15 10:06:27] [ info] Load library at /opt/nrf5x-command-line-tools/lib/libnrfjprogdll.so.
[2024-Mar-15 10:06:28] [ info] Library loaded, loading member functions.
[2024-Mar-15 10:06:28] [ info] Member functions succesfully loaded.
[2024-Mar-15 10:06:28] [debug] [ Client] - open
[2024-Mar-15 10:06:28] [debug] [ Client] - start
[2024-Mar-15 10:06:28] [ info] [ Client] - stdout: Jlinkarm nRF Worker ready. Handling sequence 296b38e2-8b38-40a2-8095-ea19b19a992f.
[2024-Mar-15 10:06:28] [debug] [SeggerBackend] - Logger sink registered in Segger backend logger
[2024-Mar-15 10:06:28] [debug] [  JLink] - Logger sink registered in JLink logger
[2024-Mar-15 10:06:28] [debug] [  nRF52] - open
[2024-Mar-15 10:06:28] [debug] [  nRF52] - just_check_family
[2024-Mar-15 10:06:28] [debug] [SeggerBackend] - open_dll
[2024-Mar-15 10:06:28] [debug] [SeggerBackend] - No J-Link DLL path was provided. Attempting to auto detect.
[2024-Mar-15 10:06:28] [ info] [SeggerBackend] - Load library at /opt/SEGGER/JLink/libjlinkarm.so.
[2024-Mar-15 10:06:28] [trace] [ Client] - Command open executed for 25 milliseconds with result 0
[2024-Mar-15 10:06:28] [debug] [ Client] - config
[2024-Mar-15 10:06:28] [trace] [ Client] - Command config executed for 2 milliseconds with result 0
[2024-Mar-15 10:06:28] [debug] [ Client] - enum_emu_snr
[2024-Mar-15 10:06:28] [ info] [SeggerBackend] - Library loaded, loading member functions.
[2024-Mar-15 10:06:28] [ info] [SeggerBackend] - Member functions succesfully loaded.
[2024-Mar-15 10:06:28] [debug] [SeggerBackend] - Set batch mode
[2024-Mar-15 10:06:28] [debug] [SeggerBackend] - dll_version
[2024-Mar-15 10:06:28] [ info] [SeggerBackend] - Segger dll version 7.96.a loaded.
[2024-Mar-15 10:06:28] [trace] [ Worker] - Command open executed for 15 milliseconds with result 0
[2024-Mar-15 10:06:28] [debug] [  nRF52] - config
[2024-Mar-15 10:06:28] [debug] [SeggerBackend] - enum_emu_snr
[2024-Mar-15 10:06:28] [trace] [ Worker] - Command config executed for 2 milliseconds with result 0
[2024-Mar-15 10:06:28] [debug] [  nRF52] - enum_emu_con_info
[2024-Mar-15 10:06:28] [debug] [SeggerBackend] - is_connected_to_emu
[2024-Mar-15 10:06:28] [debug] [SeggerBackend] - enum_emu_con_info
[2024-Mar-15 10:06:28] [trace] [ Client] - Command enum_emu_con_info executed for 4 milliseconds with result 0
[2024-Mar-15 10:06:28] [debug] [ Client] - connect_to_emu_with_snr
[2024-Mar-15 10:06:28] [debug] [SeggerBackend] - is_connected_to_emu
[2024-Mar-15 10:06:28] [trace] [ Worker] - Command enum_emu_con_info executed for 4 milliseconds with result 0
[2024-Mar-15 10:06:28] [debug] [  nRF52] - connect_to_emu_with_snr
[2024-Mar-15 10:06:28] [debug] [SeggerBackend] - is_connected_to_emu
[2024-Mar-15 10:06:28] [debug] [SeggerBackend] - connect_to_emu_with_snr
[2024-Mar-15 10:06:28] [debug] [SeggerBackend] - is_connected_to_emu
[2024-Mar-15 10:06:28] [debug] [SeggerBackend] - ---just_enum_emu_snr
[2024-Mar-15 10:06:28] [debug] [SeggerBackend] - ---just_get_num_emus
[2024-Mar-15 10:06:28] [debug] [SeggerBackend] - ---just_connect_to_emu_with_snr
[2024-Mar-15 10:06:28] [debug] [SeggerBackend] - ---just_connect_to_emu_without_snr
[2024-Mar-15 10:06:28] [debug] [SeggerBackend] - Segger logging enabled.
[2024-Mar-15 10:06:28] [trace] [  JLink] - Firmware: J-Link OB-nRF5340-NordicSemi compiled Oct 30 2023 12:13:06
[2024-Mar-15 10:06:28] [trace] [  JLink] - Firmware: J-Link OB-nRF5340-NordicSemi compiled Oct 30 2023 12:13:06
[2024-Mar-15 10:06:28] [trace] [  JLink] - Hardware: V1.00
[2024-Mar-15 10:06:28] [trace] [  JLink] - S/N: 1050230967
[2024-Mar-15 10:06:28] [trace] [  JLink] - OEM: SEGGER
[2024-Mar-15 10:06:28] [trace] [  JLink] - Feature(s): RDI, FlashBP, FlashDL, JFlash, GDB
[2024-Mar-15 10:06:28] [trace] [  JLink] - Bootloader: 2021 May 18
[2024-Mar-15 10:06:28] [trace] [  JLink] - USB speed mode: Full speed (12 MBit/s)
[2024-Mar-15 10:06:28] [trace] [  JLink] - TELNET listener socket opened on port 19021
[2024-Mar-15 10:06:28] [trace] [  JLink] - WEBSRV WEBSRV_Init(): Starting webserver thread(s)
[2024-Mar-15 10:06:28] [trace] [  JLink] - WEBSRV Webserver running on local port 19080
[2024-Mar-15 10:06:28] [trace] [  JLink] - Looking for J-Link GUI Server exe at: /opt/SEGGER/JLink/JLinkGUIServerExe 
[2024-Mar-15 10:06:28] [trace] [  JLink] - Forking J-Link GUI Server: /opt/SEGGER/JLink/JLinkGUIServerExe 
[2024-Mar-15 10:06:28] [trace] [ Client] - Command connect_to_emu_with_snr executed for 107 milliseconds with result 0
[2024-Mar-15 10:06:28] [debug] [ Client] - read_connected_emu_snr
[2024-Mar-15 10:06:28] [trace] [ Client] - Command read_connected_emu_snr executed for 0 milliseconds with result 0
[2024-Mar-15 10:06:28] [debug] [ Client] - recover
[2024-Mar-15 10:06:28] [trace] [  JLink] - J-Link GUI Server info: "J-Link GUI server V7.96a " 
[2024-Mar-15 10:06:28] [trace] [  JLink] - - 71.658ms returns "O.K."  
[2024-Mar-15 10:06:28] [trace] [  JLink] - JLINK_HasError()  
[2024-Mar-15 10:06:28] [trace] [  JLink] - JLINK_Lock()  
[2024-Mar-15 10:06:28] [trace] [  JLink] - JLINK_ExecCommand("SetRestartOnClose = 0", ...).   
[2024-Mar-15 10:06:28] [trace] [  JLink] - - 0.004ms returns 0x01  
[2024-Mar-15 10:06:28] [trace] [  JLink] - JLINK_HasError()  
[2024-Mar-15 10:06:28] [trace] [  JLink] - JLINK_ExecCommand("DisableFlashDL", ...).   
[2024-Mar-15 10:06:28] [trace] [  JLink] - - 0.002ms returns 0x00  
[2024-Mar-15 10:06:28] [trace] [  JLink] - JLINK_HasError()  
[2024-Mar-15 10:06:28] [trace] [  JLink] - JLINK_ExecCommand("ExcludeFlashCacheRange 0x0-0xFFFFFFFF", ...).   
[2024-Mar-15 10:06:28] [trace] [  JLink] - - 0.002ms returns 0x00  
[2024-Mar-15 10:06:28] [trace] [  JLink] - JLINK_HasError()  
[2024-Mar-15 10:06:28] [trace] [  JLink] - JLINK_SetHookUnsecureDialog  
[2024-Mar-15 10:06:28] [trace] [  JLink] - JLINK_SetHookUnsecureDialog(...)
[2024-Mar-15 10:06:28] [trace] [  JLink] - - 0.013ms returns 0  
[2024-Mar-15 10:06:28] [trace] [  JLink] - JLINK_HasError()  
[2024-Mar-15 10:06:28] [trace] [  JLink] - JLINK_TIF_Select(JLINKARM_TIF_SWD)  
[2024-Mar-15 10:06:28] [trace] [  JLink] - - 0.443ms returns 0x00  
[2024-Mar-15 10:06:28] [trace] [  JLink] - JLINK_HasError()  
[2024-Mar-15 10:06:28] [trace] [  JLink] - JLINK_GetSpeedInfo()  
[2024-Mar-15 10:06:28] [trace] [  JLink] - 128000000 Hz / n, n >= 64
[2024-Mar-15 10:06:28] [trace] [  JLink] - - 0.012ms  
[2024-Mar-15 10:06:28] [trace] [  JLink] - JLINK_HasError()  
[2024-Mar-15 10:06:28] [debug] [SeggerBackend] - Connected emulator supports SWD speeds up to 2000kHz
[2024-Mar-15 10:06:28] [trace] [  JLink] - JLINK_SetSpeed(2000)  
[2024-Mar-15 10:06:28] [trace] [  JLink] - - 0.074ms  
[2024-Mar-15 10:06:28] [trace] [  JLink] - JLINK_HasError()  
[2024-Mar-15 10:06:28] [trace] [  JLink] - JLINK_GetSpeed()  
[2024-Mar-15 10:06:28] [trace] [  JLink] - - 0.005ms returns 2000  
[2024-Mar-15 10:06:28] [trace] [  JLink] - JLINK_HasError()  
[2024-Mar-15 10:06:28] [debug] [SeggerBackend] - SWD clock set to 2000kHz
[2024-Mar-15 10:06:28] [trace] [  JLink] - JLINK_GetSN()  
[2024-Mar-15 10:06:28] [trace] [  JLink] - - 0.005ms returns 1050230967  
[2024-Mar-15 10:06:28] [trace] [  JLink] - JLINK_HasError()  
[2024-Mar-15 10:06:28] [trace] [  JLink] - - 0.007ms  
[2024-Mar-15 10:06:28] [debug] [  nRF52] - read_device_family
[2024-Mar-15 10:06:28] [trace] [ Worker] - Command connect_to_emu_with_snr executed for 107 milliseconds with result 0
[2024-Mar-15 10:06:28] [debug] [  nRF52] - read_connected_emu_snr
[2024-Mar-15 10:06:28] [debug] [SeggerBackend] - is_connected_to_emu
[2024-Mar-15 10:06:28] [trace] [  JLink] - JLINK_IsOpen()  
[2024-Mar-15 10:06:28] [trace] [  JLink] - - 0.007ms returns 0x01  
[2024-Mar-15 10:06:28] [trace] [  JLink] - JLINK_HasError()  
[2024-Mar-15 10:06:28] [trace] [  JLink] - JLINK_Lock()  
[2024-Mar-15 10:06:28] [debug] [SeggerBackend] - read_connected_emu_snr
[2024-Mar-15 10:06:28] [trace] [  JLink] - - 0.005ms  
[2024-Mar-15 10:06:28] [trace] [ Worker] - Command read_connected_emu_snr executed for 0 milliseconds with result 0
[2024-Mar-15 10:06:28] [debug] [  nRF52] - recover
[2024-Mar-15 10:06:28] [debug] [SeggerBackend] - is_connected_to_emu
[2024-Mar-15 10:06:28] [trace] [  JLink] - JLINK_IsOpen()  
[2024-Mar-15 10:06:28] [trace] [  JLink] - - 0.005ms returns 0x01  
[2024-Mar-15 10:06:28] [trace] [  JLink] - JLINK_HasError()  
[2024-Mar-15 10:06:28] [trace] [  JLink] - JLINK_Lock()  
[2024-Mar-15 10:06:28] [debug] [SeggerBackend] - is_connected_to_emu
[2024-Mar-15 10:06:28] [debug] [  nRF52] - Just_recover
[2024-Mar-15 10:06:28] [debug] [  nRF52] - Just_is_ctrl_ap_available
[2024-Mar-15 10:06:28] [debug] [SeggerBackend] - read_access_port_register
[2024-Mar-15 10:06:28] [debug] [SeggerBackend] - ---just_read_access_port_register
[2024-Mar-15 10:06:28] [debug] [SeggerBackend] - coresight_configure
[2024-Mar-15 10:06:28] [trace] [  JLink] - JLINK_GetHWStatus(...)  
[2024-Mar-15 10:06:28] [trace] [  JLink] - - 0.116ms returns 0  
[2024-Mar-15 10:06:28] [trace] [  JLink] - JLINK_HasError()  
[2024-Mar-15 10:06:28] [trace] [  JLink] - JLINK_CORESIGHT_Configure()  
[2024-Mar-15 10:06:28] [trace] [  JLink] - - 0.424ms returns 0  
[2024-Mar-15 10:06:28] [trace] [  JLink] - JLINK_HasError()  
[2024-Mar-15 10:06:28] [debug] [SeggerBackend] - read_debug_port_idr
[2024-Mar-15 10:06:28] [debug] [SeggerBackend] - read_debug_port_register
[2024-Mar-15 10:06:28] [debug] [SeggerBackend] - ---just_read_debug_port_register
[2024-Mar-15 10:06:28] [debug] [SeggerBackend] - ---just_select_debug_port_register
[2024-Mar-15 10:06:28] [debug] [SeggerBackend] - Select AP 255, DP Bank 0, AP Bank 255
[2024-Mar-15 10:06:28] [trace] [  JLink] - JLINK_CORESIGHT_WriteAPDPReg(DP reg 0x02, 0x00000000)  
[2024-Mar-15 10:06:28] [trace] [  JLink] - - 0.162ms returns 0  
[2024-Mar-15 10:06:28] [trace] [  JLink] - JLINK_HasError()  
[2024-Mar-15 10:06:28] [trace] [  JLink] - JLINK_CORESIGHT_ReadAPDPReg(DP reg 0x00)  
[2024-Mar-15 10:06:28] [trace] [  JLink] - Value=0x2BA01477
[2024-Mar-15 10:06:28] [trace] [  JLink] - - 0.175ms returns 0  
[2024-Mar-15 10:06:28] [trace] [  JLink] - JLINK_HasError()  
[2024-Mar-15 10:06:28] [debug] [SeggerBackend] - ---just_is_debug_region_powered
[2024-Mar-15 10:06:28] [debug] [SeggerBackend] - ---just_read_debug_port_register
[2024-Mar-15 10:06:28] [debug] [SeggerBackend] - ---just_select_debug_port_register
[2024-Mar-15 10:06:28] [trace] [  JLink] - JLINK_CORESIGHT_ReadAPDPReg(DP reg 0x01)  
[2024-Mar-15 10:06:28] [trace] [  JLink] - Value=0xF0000040
[2024-Mar-15 10:06:28] [trace] [  JLink] - - 0.164ms returns 0  
[2024-Mar-15 10:06:28] [trace] [  JLink] - JLINK_HasError()  
[2024-Mar-15 10:06:28] [debug] [SeggerBackend] - ---just_select_access_port_register
[2024-Mar-15 10:06:28] [debug] [SeggerBackend] - Select AP 1, DP Bank 0, AP Bank 15
[2024-Mar-15 10:06:28] [trace] [  JLink] - JLINK_CORESIGHT_WriteAPDPReg(DP reg 0x02, 0x010000F0)  
[2024-Mar-15 10:06:28] [trace] [  JLink] - - 0.159ms returns 0  
[2024-Mar-15 10:06:28] [trace] [  JLink] - JLINK_HasError()  
[2024-Mar-15 10:06:28] [trace] [  JLink] - JLINK_CORESIGHT_ReadAPDPReg(AP reg 0x03)  
[2024-Mar-15 10:06:28] [trace] [  JLink] - Value=0x02880000
[2024-Mar-15 10:06:28] [trace] [  JLink] - - 0.229ms returns 0  
[2024-Mar-15 10:06:28] [trace] [  JLink] - JLINK_HasError()  
[2024-Mar-15 10:06:28] [debug] [SeggerBackend] - read_access_port_register
[2024-Mar-15 10:06:28] [debug] [SeggerBackend] - ---just_read_access_port_register
[2024-Mar-15 10:06:28] [debug] [SeggerBackend] - ---just_select_access_port_register
[2024-Mar-15 10:06:28] [trace] [  JLink] - JLINK_CORESIGHT_ReadAPDPReg(AP reg 0x03)  
[2024-Mar-15 10:06:28] [trace] [  JLink] - Value=0x02880000
[2024-Mar-15 10:06:28] [trace] [  JLink] - - 0.179ms returns 0  
[2024-Mar-15 10:06:28] [trace] [  JLink] - JLINK_HasError()  
[2024-Mar-15 10:06:28] [debug] [SeggerBackend] - read_access_port_register
[2024-Mar-15 10:06:28] [debug] [SeggerBackend] - ---just_read_access_port_register
[2024-Mar-15 10:06:28] [debug] [SeggerBackend] - ---just_select_access_port_register
[2024-Mar-15 10:06:28] [trace] [  JLink] - JLINK_CORESIGHT_ReadAPDPReg(AP reg 0x03)  
[2024-Mar-15 10:06:28] [trace] [  JLink] - Value=0x02880000
[2024-Mar-15 10:06:28] [trace] [  JLink] - - 0.190ms returns 0  
[2024-Mar-15 10:06:28] [trace] [  JLink] - JLINK_HasError()  
[2024-Mar-15 10:06:28] [debug] [SeggerBackend] - read_access_port_register
[2024-Mar-15 10:06:28] [debug] [SeggerBackend] - ---just_read_access_port_register
[2024-Mar-15 10:06:28] [debug] [SeggerBackend] - ---just_select_access_port_register
[2024-Mar-15 10:06:28] [trace] [  JLink] - JLINK_CORESIGHT_ReadAPDPReg(AP reg 0x03)  
[2024-Mar-15 10:06:28] [trace] [  JLink] - Value=0x02880000
[2024-Mar-15 10:06:28] [trace] [  JLink] - - 0.191ms returns 0  
[2024-Mar-15 10:06:28] [trace] [  JLink] - JLINK_HasError()  
[2024-Mar-15 10:06:28] [debug] [SeggerBackend] - write_access_port_register
[2024-Mar-15 10:06:28] [debug] [SeggerBackend] - ---just_write_access_port_register
[2024-Mar-15 10:06:28] [debug] [SeggerBackend] - ---just_select_access_port_register
[2024-Mar-15 10:06:28] [debug] [SeggerBackend] - Select AP 1, DP Bank 0, AP Bank 0
[2024-Mar-15 10:06:28] [trace] [  JLink] - JLINK_CORESIGHT_WriteAPDPReg(DP reg 0x02, 0x01000000)  
[2024-Mar-15 10:06:28] [trace] [  JLink] - - 0.160ms returns 0  
[2024-Mar-15 10:06:28] [trace] [  JLink] - JLINK_HasError()  
[2024-Mar-15 10:06:28] [trace] [  JLink] - JLINK_CORESIGHT_WriteAPDPReg(AP reg 0x01, 0x00000001)  
[2024-Mar-15 10:06:28] [trace] [  JLink] - - 0.209ms returns 0  
[2024-Mar-15 10:06:28] [trace] [  JLink] - JLINK_HasError()  
[2024-Mar-15 10:06:28] [debug] [SeggerBackend] - read_access_port_register
[2024-Mar-15 10:06:28] [debug] [SeggerBackend] - ---just_read_access_port_register
[2024-Mar-15 10:06:28] [debug] [SeggerBackend] - ---just_select_access_port_register
[2024-Mar-15 10:06:28] [trace] [  JLink] - JLINK_CORESIGHT_ReadAPDPReg(AP reg 0x02)  
[2024-Mar-15 10:06:28] [trace] [  JLink] - Value=0x00000001
[2024-Mar-15 10:06:28] [trace] [  JLink] - - 0.238ms returns 0  
[2024-Mar-15 10:06:28] [trace] [  JLink] - JLINK_HasError()  
[2024-Mar-15 10:06:29] [debug] [SeggerBackend] - read_access_port_register
[2024-Mar-15 10:06:29] [debug] [SeggerBackend] - ---just_read_access_port_register
[2024-Mar-15 10:06:29] [debug] [SeggerBackend] - ---just_select_access_port_register
[2024-Mar-15 10:06:29] [trace] [  JLink] - JLINK_CORESIGHT_ReadAPDPReg(AP reg 0x02)  
[2024-Mar-15 10:06:29] [trace] [  JLink] - Value=0x00000000
[2024-Mar-15 10:06:29] [trace] [  JLink] - - 0.316ms returns 0  
[2024-Mar-15 10:06:29] [trace] [  JLink] - JLINK_HasError()  
[2024-Mar-15 10:06:29] [debug] [  nRF52] - Just_debug_reset
[2024-Mar-15 10:06:29] [debug] [  nRF52] - Just_is_ctrl_ap_available
[2024-Mar-15 10:06:29] [debug] [SeggerBackend] - read_access_port_register
[2024-Mar-15 10:06:29] [debug] [SeggerBackend] - ---just_read_access_port_register
[2024-Mar-15 10:06:29] [debug] [SeggerBackend] - ---just_select_access_port_register
[2024-Mar-15 10:06:29] [debug] [SeggerBackend] - Select AP 1, DP Bank 0, AP Bank 15
[2024-Mar-15 10:06:29] [trace] [  JLink] - JLINK_CORESIGHT_WriteAPDPReg(DP reg 0x02, 0x010000F0)  
[2024-Mar-15 10:06:29] [trace] [  JLink] - - 0.250ms returns 0  
[2024-Mar-15 10:06:29] [trace] [  JLink] - JLINK_HasError()  
[2024-Mar-15 10:06:29] [trace] [  JLink] - JLINK_CORESIGHT_ReadAPDPReg(AP reg 0x03)  
[2024-Mar-15 10:06:29] [trace] [  JLink] - Value=0x02880000
[2024-Mar-15 10:06:29] [trace] [  JLink] - - 0.257ms returns 0  
[2024-Mar-15 10:06:29] [trace] [  JLink] - JLINK_HasError()  
[2024-Mar-15 10:06:29] [debug] [SeggerBackend] - read_access_port_register
[2024-Mar-15 10:06:29] [debug] [SeggerBackend] - ---just_read_access_port_register
[2024-Mar-15 10:06:29] [debug] [SeggerBackend] - ---just_select_access_port_register
[2024-Mar-15 10:06:29] [trace] [  JLink] - JLINK_CORESIGHT_ReadAPDPReg(AP reg 0x03)  
[2024-Mar-15 10:06:29] [trace] [  JLink] - Value=0x02880000
[2024-Mar-15 10:06:29] [trace] [  JLink] - - 0.275ms returns 0  
[2024-Mar-15 10:06:29] [trace] [  JLink] - JLINK_HasError()  
[2024-Mar-15 10:06:29] [debug] [SeggerBackend] - read_access_port_register
[2024-Mar-15 10:06:29] [debug] [SeggerBackend] - ---just_read_access_port_register
[2024-Mar-15 10:06:29] [debug] [SeggerBackend] - ---just_select_access_port_register
[2024-Mar-15 10:06:29] [trace] [  JLink] - JLINK_CORESIGHT_ReadAPDPReg(AP reg 0x03)  
[2024-Mar-15 10:06:29] [trace] [  JLink] - Value=0x02880000
[2024-Mar-15 10:06:29] [trace] [  JLink] - - 0.225ms returns 0  
[2024-Mar-15 10:06:29] [trace] [  JLink] - JLINK_HasError()  
[2024-Mar-15 10:06:29] [debug] [SeggerBackend] - read_access_port_register
[2024-Mar-15 10:06:29] [debug] [SeggerBackend] - ---just_read_access_port_register
[2024-Mar-15 10:06:29] [debug] [SeggerBackend] - ---just_select_access_port_register
[2024-Mar-15 10:06:29] [trace] [  JLink] - JLINK_CORESIGHT_ReadAPDPReg(AP reg 0x03)  
[2024-Mar-15 10:06:29] [trace] [  JLink] - Value=0x02880000
[2024-Mar-15 10:06:29] [trace] [  JLink] - - 0.217ms returns 0  
[2024-Mar-15 10:06:29] [trace] [  JLink] - JLINK_HasError()  
[2024-Mar-15 10:06:29] [debug] [SeggerBackend] - write_access_port_register
[2024-Mar-15 10:06:29] [debug] [SeggerBackend] - ---just_write_access_port_register
[2024-Mar-15 10:06:29] [debug] [SeggerBackend] - ---just_select_access_port_register
[2024-Mar-15 10:06:29] [debug] [SeggerBackend] - Select AP 1, DP Bank 0, AP Bank 0
[2024-Mar-15 10:06:29] [trace] [  JLink] - JLINK_CORESIGHT_WriteAPDPReg(DP reg 0x02, 0x01000000)  
[2024-Mar-15 10:06:29] [trace] [  JLink] - - 0.172ms returns 0  
[2024-Mar-15 10:06:29] [trace] [  JLink] - JLINK_HasError()  
[2024-Mar-15 10:06:29] [trace] [  JLink] - JLINK_CORESIGHT_WriteAPDPReg(AP reg 0x00, 0x00000001)  
[2024-Mar-15 10:06:29] [trace] [  JLink] - - 0.208ms returns 0  
[2024-Mar-15 10:06:29] [trace] [  JLink] - JLINK_HasError()  
[2024-Mar-15 10:06:29] [debug] [SeggerBackend] - write_access_port_register
[2024-Mar-15 10:06:29] [debug] [SeggerBackend] - ---just_write_access_port_register
[2024-Mar-15 10:06:29] [debug] [SeggerBackend] - ---just_select_access_port_register
[2024-Mar-15 10:06:29] [trace] [  JLink] - JLINK_CORESIGHT_WriteAPDPReg(AP reg 0x00, 0x00000000)  
[2024-Mar-15 10:06:29] [trace] [  JLink] - - 0.233ms returns 0  
[2024-Mar-15 10:06:29] [trace] [  JLink] - JLINK_HasError()  
[2024-Mar-15 10:06:29] [debug] [SeggerBackend] - write_access_port_register
[2024-Mar-15 10:06:29] [debug] [SeggerBackend] - ---just_write_access_port_register
[2024-Mar-15 10:06:29] [debug] [SeggerBackend] - ---just_select_access_port_register
[2024-Mar-15 10:06:29] [trace] [  JLink] - JLINK_CORESIGHT_WriteAPDPReg(AP reg 0x01, 0x00000000)  
[2024-Mar-15 10:06:29] [trace] [  JLink] - - 0.225ms returns 0  
[2024-Mar-15 10:06:29] [trace] [  JLink] - JLINK_HasError()  
[2024-Mar-15 10:06:29] [debug] [  nRF52] - Just_readback_status
[2024-Mar-15 10:06:29] [debug] [  nRF52] - Just_is_ctrl_ap_available
[2024-Mar-15 10:06:29] [debug] [SeggerBackend] - read_access_port_register
[2024-Mar-15 10:06:29] [debug] [SeggerBackend] - ---just_read_access_port_register
[2024-Mar-15 10:06:29] [debug] [SeggerBackend] - ---just_select_access_port_register
[2024-Mar-15 10:06:29] [debug] [SeggerBackend] - Select AP 1, DP Bank 0, AP Bank 15
[2024-Mar-15 10:06:29] [trace] [  JLink] - JLINK_CORESIGHT_WriteAPDPReg(DP reg 0x02, 0x010000F0)  
[2024-Mar-15 10:06:29] [trace] [  JLink] - - 0.243ms returns 0  
[2024-Mar-15 10:06:29] [trace] [  JLink] - JLINK_HasError()  
[2024-Mar-15 10:06:29] [trace] [  JLink] - JLINK_CORESIGHT_ReadAPDPReg(AP reg 0x03)  
[2024-Mar-15 10:06:29] [trace] [  JLink] - Value=0x02880000
[2024-Mar-15 10:06:29] [trace] [  JLink] - - 0.265ms returns 0  
[2024-Mar-15 10:06:29] [trace] [  JLink] - JLINK_HasError()  
[2024-Mar-15 10:06:29] [debug] [SeggerBackend] - read_access_port_register
[2024-Mar-15 10:06:29] [debug] [SeggerBackend] - ---just_read_access_port_register
[2024-Mar-15 10:06:29] [debug] [SeggerBackend] - ---just_select_access_port_register
[2024-Mar-15 10:06:29] [trace] [  JLink] - JLINK_CORESIGHT_ReadAPDPReg(AP reg 0x03)  
[2024-Mar-15 10:06:29] [trace] [  JLink] - Value=0x02880000
[2024-Mar-15 10:06:29] [trace] [  JLink] - - 0.320ms returns 0  
[2024-Mar-15 10:06:29] [trace] [  JLink] - JLINK_HasError()  
[2024-Mar-15 10:06:29] [debug] [SeggerBackend] - read_access_port_register
[2024-Mar-15 10:06:29] [debug] [SeggerBackend] - ---just_read_access_port_register
[2024-Mar-15 10:06:29] [debug] [SeggerBackend] - ---just_select_access_port_register
[2024-Mar-15 10:06:29] [trace] [  JLink] - JLINK_CORESIGHT_ReadAPDPReg(AP reg 0x03)  
[2024-Mar-15 10:06:29] [trace] [  JLink] - Value=0x02880000
[2024-Mar-15 10:06:29] [trace] [  JLink] - - 0.257ms returns 0  
[2024-Mar-15 10:06:29] [trace] [  JLink] - JLINK_HasError()  
[2024-Mar-15 10:06:29] [debug] [SeggerBackend] - read_access_port_register
[2024-Mar-15 10:06:29] [debug] [SeggerBackend] - ---just_read_access_port_register
[2024-Mar-15 10:06:29] [debug] [SeggerBackend] - ---just_select_access_port_register
[2024-Mar-15 10:06:29] [trace] [  JLink] - JLINK_CORESIGHT_ReadAPDPReg(AP reg 0x03)  
[2024-Mar-15 10:06:29] [trace] [  JLink] - Value=0x02880000
[2024-Mar-15 10:06:29] [trace] [  JLink] - - 0.229ms returns 0  
[2024-Mar-15 10:06:29] [trace] [  JLink] - JLINK_HasError()  
[2024-Mar-15 10:06:29] [debug] [SeggerBackend] - read_access_port_register
[2024-Mar-15 10:06:29] [debug] [SeggerBackend] - ---just_read_access_port_register
[2024-Mar-15 10:06:29] [debug] [SeggerBackend] - ---just_select_access_port_register
[2024-Mar-15 10:06:29] [debug] [SeggerBackend] - Select AP 1, DP Bank 0, AP Bank 0
[2024-Mar-15 10:06:29] [trace] [  JLink] - JLINK_CORESIGHT_WriteAPDPReg(DP reg 0x02, 0x01000000)  
[2024-Mar-15 10:06:29] [trace] [  JLink] - - 0.183ms returns 0  
[2024-Mar-15 10:06:29] [trace] [  JLink] - JLINK_HasError()  
[2024-Mar-15 10:06:29] [trace] [  JLink] - JLINK_CORESIGHT_ReadAPDPReg(AP reg 0x03)  
[2024-Mar-15 10:06:29] [trace] [  JLink] - Value=0x00000001
[2024-Mar-15 10:06:29] [trace] [  JLink] - - 0.218ms returns 0  
[2024-Mar-15 10:06:29] [trace] [  JLink] - JLINK_HasError()  
[2024-Mar-15 10:06:29] [debug] [SeggerBackend] - read_access_port_register
[2024-Mar-15 10:06:29] [debug] [SeggerBackend] - ---just_read_access_port_register
[2024-Mar-15 10:06:29] [debug] [SeggerBackend] - ---just_select_access_port_register
[2024-Mar-15 10:06:29] [trace] [  JLink] - JLINK_CORESIGHT_ReadAPDPReg(AP reg 0x03)  
[2024-Mar-15 10:06:29] [trace] [  JLink] - Value=0x00000001
[2024-Mar-15 10:06:29] [trace] [  JLink] - - 0.224ms returns 0  
[2024-Mar-15 10:06:29] [trace] [  JLink] - JLINK_HasError()  
[2024-Mar-15 10:06:29] [debug] [SeggerBackend] - read_access_port_register
[2024-Mar-15 10:06:29] [debug] [SeggerBackend] - ---just_read_access_port_register
[2024-Mar-15 10:06:29] [debug] [SeggerBackend] - ---just_select_access_port_register
[2024-Mar-15 10:06:29] [trace] [  JLink] - JLINK_CORESIGHT_ReadAPDPReg(AP reg 0x03)  
[2024-Mar-15 10:06:29] [trace] [  JLink] - Value=0x00000001
[2024-Mar-15 10:06:29] [trace] [  JLink] - - 0.212ms returns 0  
[2024-Mar-15 10:06:29] [trace] [  JLink] - JLINK_HasError()  
[2024-Mar-15 10:06:29] [debug] [SeggerBackend] - read_access_port_register
[2024-Mar-15 10:06:29] [debug] [SeggerBackend] - ---just_read_access_port_register
[2024-Mar-15 10:06:29] [debug] [SeggerBackend] - ---just_select_access_port_register
[2024-Mar-15 10:06:29] [trace] [  JLink] - JLINK_CORESIGHT_ReadAPDPReg(AP reg 0x03)  
[2024-Mar-15 10:06:29] [trace] [  JLink] - Value=0x00000001
[2024-Mar-15 10:06:29] [trace] [  JLink] - - 0.253ms returns 0  
[2024-Mar-15 10:06:29] [trace] [  JLink] - JLINK_HasError()  
[2024-Mar-15 10:06:29] [ info] [  nRF52] - Protection status read as NONE
[2024-Mar-15 10:06:29] [debug] [  nRF52] - Just_debug_reset
[2024-Mar-15 10:06:29] [debug] [  nRF52] - Just_is_ctrl_ap_available
[2024-Mar-15 10:06:29] [debug] [SeggerBackend] - read_access_port_register
[2024-Mar-15 10:06:29] [debug] [SeggerBackend] - ---just_read_access_port_register
[2024-Mar-15 10:06:29] [debug] [SeggerBackend] - ---just_select_access_port_register
[2024-Mar-15 10:06:29] [debug] [SeggerBackend] - Select AP 1, DP Bank 0, AP Bank 15
[2024-Mar-15 10:06:29] [trace] [  JLink] - JLINK_CORESIGHT_WriteAPDPReg(DP reg 0x02, 0x010000F0)  
[2024-Mar-15 10:06:29] [trace] [  JLink] - - 0.191ms returns 0  
[2024-Mar-15 10:06:29] [trace] [  JLink] - JLINK_HasError()  
[2024-Mar-15 10:06:29] [trace] [  JLink] - JLINK_CORESIGHT_ReadAPDPReg(AP reg 0x03)  
[2024-Mar-15 10:06:29] [trace] [  JLink] - Value=0x02880000
[2024-Mar-15 10:06:29] [trace] [  JLink] - - 0.211ms returns 0  
[2024-Mar-15 10:06:29] [trace] [  JLink] - JLINK_HasError()  
[2024-Mar-15 10:06:29] [debug] [SeggerBackend] - read_access_port_register
[2024-Mar-15 10:06:29] [debug] [SeggerBackend] - ---just_read_access_port_register
[2024-Mar-15 10:06:29] [debug] [SeggerBackend] - ---just_select_access_port_register
[2024-Mar-15 10:06:29] [trace] [  JLink] - JLINK_CORESIGHT_ReadAPDPReg(AP reg 0x03)  
[2024-Mar-15 10:06:29] [trace] [  JLink] - Value=0x02880000
[2024-Mar-15 10:06:29] [trace] [  JLink] - - 0.207ms returns 0  
[2024-Mar-15 10:06:29] [trace] [  JLink] - JLINK_HasError()  
[2024-Mar-15 10:06:29] [debug] [SeggerBackend] - read_access_port_register
[2024-Mar-15 10:06:29] [debug] [SeggerBackend] - ---just_read_access_port_register
[2024-Mar-15 10:06:29] [debug] [SeggerBackend] - ---just_select_access_port_register
[2024-Mar-15 10:06:29] [trace] [  JLink] - JLINK_CORESIGHT_ReadAPDPReg(AP reg 0x03)  
[2024-Mar-15 10:06:29] [trace] [  JLink] - Value=0x02880000
[2024-Mar-15 10:06:29] [trace] [  JLink] - - 0.222ms returns 0  
[2024-Mar-15 10:06:29] [trace] [  JLink] - JLINK_HasError()  
[2024-Mar-15 10:06:29] [debug] [SeggerBackend] - read_access_port_register
[2024-Mar-15 10:06:29] [debug] [SeggerBackend] - ---just_read_access_port_register
[2024-Mar-15 10:06:29] [debug] [SeggerBackend] - ---just_select_access_port_register
[2024-Mar-15 10:06:29] [trace] [  JLink] - JLINK_CORESIGHT_ReadAPDPReg(AP reg 0x03)  
[2024-Mar-15 10:06:29] [trace] [  JLink] - Value=0x02880000
[2024-Mar-15 10:06:29] [trace] [  JLink] - - 0.214ms returns 0  
[2024-Mar-15 10:06:29] [trace] [  JLink] - JLINK_HasError()  
[2024-Mar-15 10:06:29] [debug] [SeggerBackend] - write_access_port_register
[2024-Mar-15 10:06:29] [debug] [SeggerBackend] - ---just_write_access_port_register
[2024-Mar-15 10:06:29] [debug] [SeggerBackend] - ---just_select_access_port_register
[2024-Mar-15 10:06:29] [debug] [SeggerBackend] - Select AP 1, DP Bank 0, AP Bank 0
[2024-Mar-15 10:06:29] [trace] [  JLink] - JLINK_CORESIGHT_WriteAPDPReg(DP reg 0x02, 0x01000000)  
[2024-Mar-15 10:06:29] [trace] [  JLink] - - 0.173ms returns 0  
[2024-Mar-15 10:06:29] [trace] [  JLink] - JLINK_HasError()  
[2024-Mar-15 10:06:29] [trace] [  JLink] - JLINK_CORESIGHT_WriteAPDPReg(AP reg 0x00, 0x00000001)  
[2024-Mar-15 10:06:29] [trace] [  JLink] - - 0.171ms returns 0  
[2024-Mar-15 10:06:29] [trace] [  JLink] - JLINK_HasError()  
[2024-Mar-15 10:06:29] [debug] [SeggerBackend] - write_access_port_register
[2024-Mar-15 10:06:29] [debug] [SeggerBackend] - ---just_write_access_port_register
[2024-Mar-15 10:06:29] [debug] [SeggerBackend] - ---just_select_access_port_register
[2024-Mar-15 10:06:29] [trace] [  JLink] - JLINK_CORESIGHT_WriteAPDPReg(AP reg 0x00, 0x00000000)  
[2024-Mar-15 10:06:29] [trace] [  JLink] - - 0.196ms returns 0  
[2024-Mar-15 10:06:29] [trace] [  JLink] - JLINK_HasError()  
[2024-Mar-15 10:06:29] [debug] [  nRF52] - Just_read_device_version
[2024-Mar-15 10:06:29] [debug] [  nRF52] - Just_readback_status
[2024-Mar-15 10:06:29] [debug] [  nRF52] - Just_is_ctrl_ap_available
[2024-Mar-15 10:06:29] [debug] [SeggerBackend] - read_access_port_register
[2024-Mar-15 10:06:29] [debug] [SeggerBackend] - ---just_read_access_port_register
[2024-Mar-15 10:06:29] [debug] [SeggerBackend] - ---just_select_access_port_register
[2024-Mar-15 10:06:29] [debug] [SeggerBackend] - Select AP 1, DP Bank 0, AP Bank 15
[2024-Mar-15 10:06:29] [trace] [  JLink] - JLINK_CORESIGHT_WriteAPDPReg(DP reg 0x02, 0x010000F0)  
[2024-Mar-15 10:06:29] [trace] [  JLink] - - 0.219ms returns 0  
[2024-Mar-15 10:06:29] [trace] [  JLink] - JLINK_HasError()  
[2024-Mar-15 10:06:29] [trace] [  JLink] - JLINK_CORESIGHT_ReadAPDPReg(AP reg 0x03)  
[2024-Mar-15 10:06:29] [trace] [  JLink] - Value=0x02880000
[2024-Mar-15 10:06:29] [trace] [  JLink] - - 0.266ms returns 0  
[2024-Mar-15 10:06:29] [trace] [  JLink] - JLINK_HasError()  
[2024-Mar-15 10:06:29] [debug] [SeggerBackend] - read_access_port_register
[2024-Mar-15 10:06:29] [debug] [SeggerBackend] - ---just_read_access_port_register
[2024-Mar-15 10:06:29] [debug] [SeggerBackend] - ---just_select_access_port_register
[2024-Mar-15 10:06:29] [trace] [  JLink] - JLINK_CORESIGHT_ReadAPDPReg(AP reg 0x03)  
[2024-Mar-15 10:06:29] [trace] [  JLink] - Value=0x02880000
[2024-Mar-15 10:06:29] [trace] [  JLink] - - 0.268ms returns 0  
[2024-Mar-15 10:06:29] [trace] [  JLink] - JLINK_HasError()  
[2024-Mar-15 10:06:29] [debug] [SeggerBackend] - read_access_port_register
[2024-Mar-15 10:06:29] [debug] [SeggerBackend] - ---just_read_access_port_register
[2024-Mar-15 10:06:29] [debug] [SeggerBackend] - ---just_select_access_port_register
[2024-Mar-15 10:06:29] [trace] [  JLink] - JLINK_CORESIGHT_ReadAPDPReg(AP reg 0x03)  
[2024-Mar-15 10:06:29] [trace] [  JLink] - Value=0x02880000
[2024-Mar-15 10:06:29] [trace] [  JLink] - - 0.268ms returns 0  
[2024-Mar-15 10:06:29] [trace] [  JLink] - JLINK_HasError()  
[2024-Mar-15 10:06:29] [debug] [SeggerBackend] - read_access_port_register
[2024-Mar-15 10:06:29] [debug] [SeggerBackend] - ---just_read_access_port_register
[2024-Mar-15 10:06:29] [debug] [SeggerBackend] - ---just_select_access_port_register
[2024-Mar-15 10:06:29] [trace] [  JLink] - JLINK_CORESIGHT_ReadAPDPReg(AP reg 0x03)  
[2024-Mar-15 10:06:29] [trace] [  JLink] - Value=0x02880000
[2024-Mar-15 10:06:29] [trace] [  JLink] - - 0.262ms returns 0  
[2024-Mar-15 10:06:29] [trace] [  JLink] - JLINK_HasError()  
[2024-Mar-15 10:06:29] [debug] [SeggerBackend] - read_access_port_register
[2024-Mar-15 10:06:29] [debug] [SeggerBackend] - ---just_read_access_port_register
[2024-Mar-15 10:06:29] [debug] [SeggerBackend] - ---just_select_access_port_register
[2024-Mar-15 10:06:29] [debug] [SeggerBackend] - Select AP 1, DP Bank 0, AP Bank 0
[2024-Mar-15 10:06:29] [trace] [  JLink] - JLINK_CORESIGHT_WriteAPDPReg(DP reg 0x02, 0x01000000)  
[2024-Mar-15 10:06:29] [trace] [  JLink] - - 0.187ms returns 0  
[2024-Mar-15 10:06:29] [trace] [  JLink] - JLINK_HasError()  
[2024-Mar-15 10:06:29] [trace] [  JLink] - JLINK_CORESIGHT_ReadAPDPReg(AP reg 0x03)  
[2024-Mar-15 10:06:29] [trace] [  JLink] - Value=0x00000001
[2024-Mar-15 10:06:29] [trace] [  JLink] - - 0.209ms returns 0  
[2024-Mar-15 10:06:29] [trace] [  JLink] - JLINK_HasError()  
[2024-Mar-15 10:06:29] [debug] [SeggerBackend] - read_access_port_register
[2024-Mar-15 10:06:29] [debug] [SeggerBackend] - ---just_read_access_port_register
[2024-Mar-15 10:06:29] [debug] [SeggerBackend] - ---just_select_access_port_register
[2024-Mar-15 10:06:29] [trace] [  JLink] - JLINK_CORESIGHT_ReadAPDPReg(AP reg 0x03)  
[2024-Mar-15 10:06:29] [trace] [  JLink] - Value=0x00000001
[2024-Mar-15 10:06:29] [trace] [  JLink] - - 0.208ms returns 0  
[2024-Mar-15 10:06:29] [trace] [  JLink] - JLINK_HasError()  
[2024-Mar-15 10:06:29] [debug] [SeggerBackend] - read_access_port_register
[2024-Mar-15 10:06:29] [debug] [SeggerBackend] - ---just_read_access_port_register
[2024-Mar-15 10:06:29] [debug] [SeggerBackend] - ---just_select_access_port_register
[2024-Mar-15 10:06:29] [trace] [  JLink] - JLINK_CORESIGHT_ReadAPDPReg(AP reg 0x03)  
[2024-Mar-15 10:06:29] [trace] [  JLink] - Value=0x00000001
[2024-Mar-15 10:06:29] [trace] [  JLink] - - 0.325ms returns 0  
[2024-Mar-15 10:06:29] [trace] [  JLink] - JLINK_HasError()  
[2024-Mar-15 10:06:29] [debug] [SeggerBackend] - read_access_port_register
[2024-Mar-15 10:06:29] [debug] [SeggerBackend] - ---just_read_access_port_register
[2024-Mar-15 10:06:29] [debug] [SeggerBackend] - ---just_select_access_port_register
[2024-Mar-15 10:06:29] [trace] [  JLink] - JLINK_CORESIGHT_ReadAPDPReg(AP reg 0x03)  
[2024-Mar-15 10:06:29] [trace] [  JLink] - Value=0x00000001
[2024-Mar-15 10:06:29] [trace] [  JLink] - - 0.264ms returns 0  
[2024-Mar-15 10:06:29] [trace] [  JLink] - JLINK_HasError()  
[2024-Mar-15 10:06:29] [ info] [  nRF52] - Protection status read as NONE
[2024-Mar-15 10:06:29] [debug] [SeggerBackend] - read_u32
[2024-Mar-15 10:06:29] [debug] [SeggerBackend] - ---just_connect_to_device
[2024-Mar-15 10:06:29] [debug] [SeggerBackend] - is_connected_to_device
[2024-Mar-15 10:06:29] [trace] [  JLink] - JLINK_IsConnected()  
[2024-Mar-15 10:06:29] [trace] [  JLink] - - 0.007ms returns FALSE  
[2024-Mar-15 10:06:29] [trace] [  JLink] - JLINK_HasError()  
[2024-Mar-15 10:06:29] [debug] [SeggerBackend] - ---set_coresight_ahb_ap_index
[2024-Mar-15 10:06:29] [trace] [  JLink] - JLINK_ExecCommand("CORESIGHT_SetIndexAHBAPToUse = 0", ...).   
[2024-Mar-15 10:06:29] [trace] [  JLink] - - 0.003ms returns 0x00  
[2024-Mar-15 10:06:29] [trace] [  JLink] - JLINK_HasError()  
[2024-Mar-15 10:06:29] [trace] [  JLink] - JLINK_ExecCommand("device = nRF52", ...).   
[2024-Mar-15 10:06:29] [trace] [  JLink] - Device "NRF52" selected.
[2024-Mar-15 10:06:29] [trace] [  JLink] - Device "NRF52" selected.
[2024-Mar-15 10:06:29] [trace] [  JLink] - - 0.944ms returns 0x00  
[2024-Mar-15 10:06:29] [trace] [  JLink] - JLINK_HasError()  
[2024-Mar-15 10:06:29] [trace] [  JLink] - JLINK_Connect()  
[2024-Mar-15 10:06:29] [trace] [  JLink] - InitTarget() start
[2024-Mar-15 10:06:29] [trace] [  JLink] - InitTarget() start
[2024-Mar-15 10:06:29] [trace] [  JLink] -  J-Link Script File: Executing InitTarget() 
[2024-Mar-15 10:06:29] [trace] [  JLink] - InitTarget() end - Took 1.95ms
[2024-Mar-15 10:06:29] [trace] [  JLink] - InitTarget() end - Took 1.95ms
[2024-Mar-15 10:06:29] [trace] [  JLink] - Found SW-DP with ID 0x2BA01477
[2024-Mar-15 10:06:29] [trace] [  JLink] - Found SW-DP with ID 0x2BA01477
[2024-Mar-15 10:06:29] [trace] [  JLink] - DPIDR: 0x2BA01477
[2024-Mar-15 10:06:29] [trace] [  JLink] - DPIDR: 0x2BA01477
[2024-Mar-15 10:06:29] [trace] [  JLink] - CoreSight SoC-400 or earlier
[2024-Mar-15 10:06:29] [trace] [  JLink] - CoreSight SoC-400 or earlier
[2024-Mar-15 10:06:29] [trace] [  JLink] - AP map detection skipped. Manually configured AP map found.
[2024-Mar-15 10:06:29] [trace] [  JLink] - AP map detection skipped. Manually configured AP map found.
[2024-Mar-15 10:06:29] [trace] [  JLink] - AP[0]: AHB-AP (IDR: Not set)
[2024-Mar-15 10:06:29] [trace] [  JLink] - AP[0]: AHB-AP (IDR: Not set)
[2024-Mar-15 10:06:29] [trace] [  JLink] - AP[0]: Core found
[2024-Mar-15 10:06:29] [trace] [  JLink] - AP[0]: Core found
[2024-Mar-15 10:06:29] [trace] [  JLink] - AP[0]: AHB-AP ROM base: 0xE00FF000
[2024-Mar-15 10:06:29] [trace] [  JLink] - AP[0]: AHB-AP ROM base: 0xE00FF000
[2024-Mar-15 10:06:29] [trace] [  JLink] - CPUID register: 0x410FC241. Implementer code: 0x41 (ARM)
[2024-Mar-15 10:06:29] [trace] [  JLink] - CPUID register: 0x410FC241. Implementer code: 0x41 (ARM)
[2024-Mar-15 10:06:29] [trace] [  JLink] - Found Cortex-M4 r0p1, Little endian.
[2024-Mar-15 10:06:29] [trace] [  JLink] - Found Cortex-M4 r0p1, Little endian.
[2024-Mar-15 10:06:29] [trace] [  JLink] - -- Max. mem block: 0x0003C870
[2024-Mar-15 10:06:29] [trace] [  JLink] - Cortex-M: The connected J-Link (S/N 1050230967) uses an old firmware module: V1 (current is 2)
[2024-Mar-15 10:06:29] [trace] [  JLink] - Cortex-M: The connected J-Link (S/N 1050230967) uses an old firmware module: V1 (current is 2)
[2024-Mar-15 10:06:29] [trace] [  JLink] - CPU_ReadMem(4 bytes @ 0xE000EDF0)
[2024-Mar-15 10:06:29] [trace] [  JLink] - CPU_WriteMem(4 bytes @ 0xE000EDF0)
[2024-Mar-15 10:06:29] [trace] [  JLink] - CPU_ReadMem(4 bytes @ 0xE0002000)
[2024-Mar-15 10:06:29] [trace] [  JLink] - FPUnit: 6 code (BP) slots and 2 literal slots
[2024-Mar-15 10:06:29] [trace] [  JLink] - FPUnit: 6 code (BP) slots and 2 literal slots
[2024-Mar-15 10:06:29] [trace] [  JLink] - CPU_ReadMem(4 bytes @ 0xE000EDFC)
[2024-Mar-15 10:06:29] [trace] [  JLink] - CPU_WriteMem(4 bytes @ 0xE000EDFC)
[2024-Mar-15 10:06:29] [trace] [  JLink] - CPU_ReadMem(4 bytes @ 0xE0001000)
[2024-Mar-15 10:06:29] [trace] [  JLink] - CPU_WriteMem(4 bytes @ 0xE0001000)
[2024-Mar-15 10:06:29] [trace] [  JLink] - CPU_ReadMem(4 bytes @ 0xE000ED88)
[2024-Mar-15 10:06:29] [trace] [  JLink] - CPU_WriteMem(4 bytes @ 0xE000ED88)
[2024-Mar-15 10:06:29] [trace] [  JLink] - CPU_ReadMem(4 bytes @ 0xE000ED88)
[2024-Mar-15 10:06:29] [trace] [  JLink] - CPU_WriteMem(4 bytes @ 0xE000ED88)
[2024-Mar-15 10:06:29] [trace] [  JLink] - CoreSight components:
[2024-Mar-15 10:06:29] [trace] [  JLink] - CoreSight components:
[2024-Mar-15 10:06:29] [trace] [  JLink] - ROMTbl[0] @ E00FF000
[2024-Mar-15 10:06:29] [trace] [  JLink] - ROMTbl[0] @ E00FF000
[2024-Mar-15 10:06:29] [trace] [  JLink] - CPU_ReadMem(64 bytes @ 0xE00FF000)
[2024-Mar-15 10:06:29] [trace] [  JLink] - CPU_ReadMem(32 bytes @ 0xE000EFE0)
[2024-Mar-15 10:06:29] [trace] [  JLink] - [0][0]: E000E000 CID B105E00D PID 000BB00C SCS-M7
[2024-Mar-15 10:06:29] [trace] [  JLink] - [0][0]: E000E000 CID B105E00D PID 000BB00C SCS-M7
[2024-Mar-15 10:06:29] [trace] [  JLink] - CPU_ReadMem(32 bytes @ 0xE0001FE0)
[2024-Mar-15 10:06:29] [trace] [  JLink] - [0][1]: E0001000 CID B105E00D PID 003BB002 DWT
[2024-Mar-15 10:06:29] [trace] [  JLink] - [0][1]: E0001000 CID B105E00D PID 003BB002 DWT
[2024-Mar-15 10:06:29] [trace] [  JLink] - CPU_ReadMem(32 bytes @ 0xE0002FE0)
[2024-Mar-15 10:06:29] [trace] [  JLink] - [0][2]: E0002000 CID B105E00D PID 002BB003 FPB
[2024-Mar-15 10:06:29] [trace] [  JLink] - [0][2]: E0002000 CID B105E00D PID 002BB003 FPB
[2024-Mar-15 10:06:29] [trace] [  JLink] - CPU_ReadMem(32 bytes @ 0xE0000FE0)
[2024-Mar-15 10:06:29] [trace] [  JLink] - [0][3]: E0000000 CID B105E00D PID 003BB001 ITM
[2024-Mar-15 10:06:29] [trace] [  JLink] - [0][3]: E0000000 CID B105E00D PID 003BB001 ITM
[2024-Mar-15 10:06:29] [trace] [  JLink] - CPU_ReadMem(32 bytes @ 0xE0040FE0)
[2024-Mar-15 10:06:29] [trace] [  JLink] - [0][4]: E0040000 CID B105900D PID 000BB9A1 TPIU
[2024-Mar-15 10:06:29] [trace] [  JLink] - [0][4]: E0040000 CID B105900D PID 000BB9A1 TPIU
[2024-Mar-15 10:06:29] [trace] [  JLink] - CPU_ReadMem(32 bytes @ 0xE0041FE0)
[2024-Mar-15 10:06:29] [trace] [  JLink] - [0][5]: E0041000 CID B105900D PID 000BB925 ETM
[2024-Mar-15 10:06:29] [trace] [  JLink] - [0][5]: E0041000 CID B105900D PID 000BB925 ETM
[2024-Mar-15 10:06:29] [trace] [  JLink] - - 13.987ms returns 0x00  
[2024-Mar-15 10:06:29] [trace] [  JLink] - JLINK_HasError()  
[2024-Mar-15 10:06:29] [trace] [  JLink] - JLINK_CORE_GetFound()  
[2024-Mar-15 10:06:29] [trace] [  JLink] - - 0.007ms returns 0xE0000FF  
[2024-Mar-15 10:06:29] [debug] [SeggerBackend] - ---just_read_u32
[2024-Mar-15 10:06:29] [debug] [SeggerBackend] - ---just_invalidate_cache
[2024-Mar-15 10:06:29] [trace] [  JLink] - JLINK_ExecCommand("InvalidateCache", ...).   
[2024-Mar-15 10:06:29] [trace] [  JLink] - - 0.010ms returns 0x00  
[2024-Mar-15 10:06:29] [trace] [  JLink] - JLINK_HasError()  
[2024-Mar-15 10:06:29] [trace] [  JLink] - JLINK_ReadMemU32(0x10000130, 0x1 Items)  
[2024-Mar-15 10:06:29] [trace] [  JLink] - CPU_ReadMem(4 bytes @ 0x10000130)
[2024-Mar-15 10:06:29] [trace] [  JLink] - Data:  08 00 00 00
[2024-Mar-15 10:06:29] [trace] [  JLink] - - 0.353ms returns 1 (0x1)  
[2024-Mar-15 10:06:29] [trace] [  JLink] - JLINK_HasError()  
[2024-Mar-15 10:06:29] [debug] [SeggerBackend] - read_u32
[2024-Mar-15 10:06:29] [debug] [SeggerBackend] - ---just_connect_to_device
[2024-Mar-15 10:06:29] [debug] [SeggerBackend] - is_connected_to_device
[2024-Mar-15 10:06:29] [debug] [SeggerBackend] - ---just_read_u32
[2024-Mar-15 10:06:29] [debug] [SeggerBackend] - ---just_invalidate_cache
[2024-Mar-15 10:06:29] [trace] [  JLink] - JLINK_ExecCommand("InvalidateCache", ...).   
[2024-Mar-15 10:06:29] [trace] [  JLink] - - 0.006ms returns 0x00  
[2024-Mar-15 10:06:29] [trace] [  JLink] - JLINK_HasError()  
[2024-Mar-15 10:06:29] [trace] [  JLink] - JLINK_ReadMemU32(0x10000134, 0x1 Items)  
[2024-Mar-15 10:06:29] [trace] [  JLink] - CPU_ReadMem(4 bytes @ 0x10000134)
[2024-Mar-15 10:06:29] [trace] [  JLink] - Data:  05 00 00 00
[2024-Mar-15 10:06:29] [trace] [  JLink] - - 0.376ms returns 1 (0x1)  
[2024-Mar-15 10:06:29] [trace] [  JLink] - JLINK_HasError()  
[2024-Mar-15 10:06:29] [debug] [  nRF52] - Just_decode_device_version
[2024-Mar-15 10:06:29] [debug] [  nRF52] - Device identified as NRF52840_xxAA_REV3
[2024-Mar-15 10:06:29] [debug] [  nRF52] - write_approtect
[2024-Mar-15 10:06:29] [ info] [  nRF52] - Restoring UICR values to keep device unprotected.
[2024-Mar-15 10:06:29] [debug] [  nRF52] - Just_read_u32
[2024-Mar-15 10:06:29] [debug] [SeggerBackend] - read_u32
[2024-Mar-15 10:06:29] [debug] [SeggerBackend] - ---just_connect_to_device
[2024-Mar-15 10:06:29] [debug] [SeggerBackend] - is_connected_to_device
[2024-Mar-15 10:06:29] [debug] [SeggerBackend] - ---just_halt
[2024-Mar-15 10:06:29] [trace] [  JLink] - JLINK_Halt()  
[2024-Mar-15 10:06:29] [trace] [  JLink] - - 3.335ms returns 0x00  
[2024-Mar-15 10:06:29] [trace] [  JLink] - JLINK_HasError()  
[2024-Mar-15 10:06:29] [debug] [SeggerBackend] - ---just_read_u32
[2024-Mar-15 10:06:29] [debug] [SeggerBackend] - ---just_invalidate_cache
[2024-Mar-15 10:06:29] [trace] [  JLink] - JLINK_ExecCommand("InvalidateCache", ...).   
[2024-Mar-15 10:06:29] [trace] [  JLink] - - 0.006ms returns 0x00  
[2024-Mar-15 10:06:29] [trace] [  JLink] - JLINK_HasError()  
[2024-Mar-15 10:06:29] [trace] [  JLink] - JLINK_ReadMemU32(0x10001208, 0x1 Items)  
[2024-Mar-15 10:06:29] [trace] [  JLink] - CPU_ReadMem(64 bytes @ 0x10001200)
[2024-Mar-15 10:06:29] [trace] [  JLink] -  -- Updating C cache (64 bytes @ 0x10001200)
[2024-Mar-15 10:06:29] [trace] [  JLink] -  -- Read from C cache (4 bytes @ 0x10001208)
[2024-Mar-15 10:06:29] [trace] [  JLink] - Data:  FF FF FF FF
[2024-Mar-15 10:06:29] [trace] [  JLink] - - 0.820ms returns 1 (0x1)  
[2024-Mar-15 10:06:29] [trace] [  JLink] - JLINK_HasError()  
[2024-Mar-15 10:06:29] [debug] [  nRF52] - Just_write_u32
[2024-Mar-15 10:06:29] [debug] [SeggerBackend] - write_u32
[2024-Mar-15 10:06:29] [debug] [SeggerBackend] - ---just_connect_to_device
[2024-Mar-15 10:06:29] [debug] [SeggerBackend] - is_connected_to_device
[2024-Mar-15 10:06:29] [debug] [SeggerBackend] - ---just_halt
[2024-Mar-15 10:06:29] [trace] [  JLink] - JLINK_Halt()  
[2024-Mar-15 10:06:29] [trace] [  JLink] - - 0.305ms returns 0x00  
[2024-Mar-15 10:06:29] [trace] [  JLink] - JLINK_HasError()  
[2024-Mar-15 10:06:29] [debug] [SeggerBackend] - ---just_write_u32
[2024-Mar-15 10:06:29] [debug] [SeggerBackend] - ---just_write_debug_port_register
[2024-Mar-15 10:06:29] [debug] [SeggerBackend] - ---just_select_debug_port_register
[2024-Mar-15 10:06:29] [debug] [SeggerBackend] - Select AP 255, DP Bank 0, AP Bank 255
[2024-Mar-15 10:06:29] [trace] [  JLink] - JLINK_CORESIGHT_WriteAPDPReg(DP reg 0x02, 0x00000000)  
[2024-Mar-15 10:06:29] [trace] [  JLink] - - 0.210ms returns 0  
[2024-Mar-15 10:06:29] [trace] [  JLink] - JLINK_HasError()  
[2024-Mar-15 10:06:29] [trace] [  JLink] - JLINK_CORESIGHT_WriteAPDPReg(DP reg 0x02, 0x00000000)  
[2024-Mar-15 10:06:29] [trace] [  JLink] - - 0.173ms returns 0  
[2024-Mar-15 10:06:29] [trace] [  JLink] - JLINK_HasError()  
[2024-Mar-15 10:06:29] [debug] [  nRF52] - Just_nvmc_config_control
[2024-Mar-15 10:06:29] [debug] [SeggerBackend] - write_u32
[2024-Mar-15 10:06:29] [debug] [SeggerBackend] - ---just_connect_to_device
[2024-Mar-15 10:06:29] [debug] [SeggerBackend] - is_connected_to_device
[2024-Mar-15 10:06:29] [debug] [SeggerBackend] - ---just_write_u32
[2024-Mar-15 10:06:29] [debug] [SeggerBackend] - ---just_write_debug_port_register
[2024-Mar-15 10:06:29] [debug] [SeggerBackend] - ---just_select_debug_port_register
[2024-Mar-15 10:06:29] [debug] [SeggerBackend] - Select AP 255, DP Bank 0, AP Bank 255
[2024-Mar-15 10:06:29] [trace] [  JLink] - JLINK_CORESIGHT_WriteAPDPReg(DP reg 0x02, 0x00000000)  
[2024-Mar-15 10:06:29] [trace] [  JLink] - - 0.174ms returns 0  
[2024-Mar-15 10:06:29] [trace] [  JLink] - JLINK_HasError()  
[2024-Mar-15 10:06:29] [trace] [  JLink] - JLINK_CORESIGHT_WriteAPDPReg(DP reg 0x02, 0x00000000)  
[2024-Mar-15 10:06:29] [trace] [  JLink] - - 0.171ms returns 0  
[2024-Mar-15 10:06:29] [trace] [  JLink] - JLINK_HasError()  
[2024-Mar-15 10:06:29] [trace] [  JLink] - JLINK_WriteU32_64(0x4001E504, 0x00000001)  
[2024-Mar-15 10:06:29] [trace] [  JLink] - CPU_WriteMem(4 bytes @ 0x4001E504)
[2024-Mar-15 10:06:29] [trace] [  JLink] - - 1.795ms returns 0 (0x00000000)  
[2024-Mar-15 10:06:29] [trace] [  JLink] - JLINK_HasError()  
[2024-Mar-15 10:06:29] [debug] [  nRF52] - Just_nvmc_wait_for_ready
[2024-Mar-15 10:06:29] [debug] [SeggerBackend] - read_u32
[2024-Mar-15 10:06:29] [debug] [SeggerBackend] - ---just_connect_to_device
[2024-Mar-15 10:06:29] [debug] [SeggerBackend] - is_connected_to_device
[2024-Mar-15 10:06:29] [debug] [SeggerBackend] - ---just_read_u32
[2024-Mar-15 10:06:29] [debug] [SeggerBackend] - ---just_invalidate_cache
[2024-Mar-15 10:06:29] [trace] [  JLink] - JLINK_ExecCommand("InvalidateCache", ...).   
[2024-Mar-15 10:06:29] [trace] [  JLink] - - 0.007ms returns 0x00  
[2024-Mar-15 10:06:29] [trace] [  JLink] - JLINK_HasError()  
[2024-Mar-15 10:06:29] [trace] [  JLink] - JLINK_ReadMemU32(0x4001E400, 0x1 Items)  
[2024-Mar-15 10:06:29] [trace] [  JLink] - CPU_ReadMem(4 bytes @ 0x4001E400)
[2024-Mar-15 10:06:29] [trace] [  JLink] - Data:  01 00 00 00
[2024-Mar-15 10:06:29] [trace] [  JLink] - - 0.321ms returns 1 (0x1)  
[2024-Mar-15 10:06:29] [trace] [  JLink] - JLINK_HasError()  
[2024-Mar-15 10:06:29] [trace] [  JLink] - JLINK_WriteU32_64(0x10001208, 0x0000005A)  
[2024-Mar-15 10:06:29] [trace] [  JLink] - CPU_WriteMem(4 bytes @ 0x10001208)
[2024-Mar-15 10:06:29] [trace] [  JLink] - - 1.713ms returns 0 (0x00000000)  
[2024-Mar-15 10:06:29] [trace] [  JLink] - JLINK_HasError()  
[2024-Mar-15 10:06:29] [debug] [  nRF52] - Just_nvmc_wait_for_ready
[2024-Mar-15 10:06:29] [debug] [SeggerBackend] - read_u32
[2024-Mar-15 10:06:29] [debug] [SeggerBackend] - ---just_connect_to_device
[2024-Mar-15 10:06:29] [debug] [SeggerBackend] - is_connected_to_device
[2024-Mar-15 10:06:29] [debug] [SeggerBackend] - ---just_read_u32
[2024-Mar-15 10:06:29] [debug] [SeggerBackend] - ---just_invalidate_cache
[2024-Mar-15 10:06:29] [trace] [  JLink] - JLINK_ExecCommand("InvalidateCache", ...).   
[2024-Mar-15 10:06:29] [trace] [  JLink] - - 0.006ms returns 0x00  
[2024-Mar-15 10:06:29] [trace] [  JLink] - JLINK_HasError()  
[2024-Mar-15 10:06:29] [trace] [  JLink] - JLINK_ReadMemU32(0x4001E400, 0x1 Items)  
[2024-Mar-15 10:06:29] [trace] [  JLink] - CPU_ReadMem(4 bytes @ 0x4001E400)
[2024-Mar-15 10:06:29] [trace] [  JLink] - Data:  01 00 00 00
[2024-Mar-15 10:06:29] [trace] [  JLink] - - 0.313ms returns 1 (0x1)  
[2024-Mar-15 10:06:29] [trace] [  JLink] - JLINK_HasError()  
[2024-Mar-15 10:06:29] [debug] [  nRF52] - Just_nvmc_config_control
[2024-Mar-15 10:06:29] [debug] [SeggerBackend] - write_u32
[2024-Mar-15 10:06:29] [debug] [SeggerBackend] - ---just_connect_to_device
[2024-Mar-15 10:06:29] [debug] [SeggerBackend] - is_connected_to_device
[2024-Mar-15 10:06:29] [debug] [SeggerBackend] - ---just_write_u32
[2024-Mar-15 10:06:29] [debug] [SeggerBackend] - ---just_write_debug_port_register
[2024-Mar-15 10:06:29] [debug] [SeggerBackend] - ---just_select_debug_port_register
[2024-Mar-15 10:06:29] [debug] [SeggerBackend] - Select AP 255, DP Bank 0, AP Bank 255
[2024-Mar-15 10:06:29] [trace] [  JLink] - JLINK_CORESIGHT_WriteAPDPReg(DP reg 0x02, 0x00000000)  
[2024-Mar-15 10:06:29] [trace] [  JLink] - - 0.179ms returns 0  
[2024-Mar-15 10:06:29] [trace] [  JLink] - JLINK_HasError()  
[2024-Mar-15 10:06:29] [trace] [  JLink] - JLINK_CORESIGHT_WriteAPDPReg(DP reg 0x02, 0x00000000)  
[2024-Mar-15 10:06:29] [trace] [  JLink] - - 0.177ms returns 0  
[2024-Mar-15 10:06:29] [trace] [  JLink] - JLINK_HasError()  
[2024-Mar-15 10:06:29] [trace] [  JLink] - JLINK_WriteU32_64(0x4001E504, 0x00000000)  
[2024-Mar-15 10:06:29] [trace] [  JLink] - CPU_WriteMem(4 bytes @ 0x4001E504)
[2024-Mar-15 10:06:29] [trace] [  JLink] - - 0.352ms returns 0 (0x00000000)  
[2024-Mar-15 10:06:29] [trace] [  JLink] - JLINK_HasError()  
[2024-Mar-15 10:06:29] [debug] [  nRF52] - Just_nvmc_wait_for_ready
[2024-Mar-15 10:06:29] [debug] [SeggerBackend] - read_u32
[2024-Mar-15 10:06:29] [debug] [SeggerBackend] - ---just_connect_to_device
[2024-Mar-15 10:06:29] [debug] [SeggerBackend] - is_connected_to_device
[2024-Mar-15 10:06:29] [debug] [SeggerBackend] - ---just_read_u32
[2024-Mar-15 10:06:29] [debug] [SeggerBackend] - ---just_invalidate_cache
[2024-Mar-15 10:06:29] [trace] [  JLink] - JLINK_ExecCommand("InvalidateCache", ...).   
[2024-Mar-15 10:06:29] [trace] [  JLink] - - 0.008ms returns 0x00  
[2024-Mar-15 10:06:29] [trace] [  JLink] - JLINK_HasError()  
[2024-Mar-15 10:06:29] [trace] [  JLink] - JLINK_ReadMemU32(0x4001E400, 0x1 Items)  
[2024-Mar-15 10:06:29] [trace] [  JLink] - CPU_ReadMem(4 bytes @ 0x4001E400)
[2024-Mar-15 10:06:29] [trace] [  JLink] - Data:  01 00 00 00
[2024-Mar-15 10:06:29] [trace] [  JLink] - - 0.351ms returns 1 (0x1)  
